Freq [GHz],S12 Mag,S13 Mag,S14 Mag,S23 Mag,S24 Mag,S34 Mag,S12 Phase,S13 Phase,S14 Phase,S23 Phase,S24 Phase,S34 Phase,S11 Mag,S22 Mag,S33 Mag,S44 Mag,S11 Phase,S22 Phase,S33 Phase,S44 Phase,Size
0.06974128233970756,0.24756602625407786,0.22681740182372456,0.9563667229502235,0.8229952148710837,0.1133467357302882,0.7780972827643005,0.7641711887794418,0.8441997801696218,0.006535589655992324,0.14314820047163013,0.18067735120467399,0.1283989285103051,0.9000760427309902,0.9195803638999376,0.9612355722972485,0.983286096607784,0.3401690885331386,0.4729811256466787,0.2900084013105374,0.31347078142118207,1.0
0.0708661417322835,0.26539970193863216,0.23010157395311492,0.9760895070591471,0.8969781458651256,0.21766791822032694,0.7822527366508214,0.7403824229589266,0.8211297109524306,0.996321588008938,0.12121524191594313,0.1555095942212697,0.12000835469829818,0.8989487652770848,0.9184020055370069,0.9569109227582365,0.9783224163338567,0.3383748944041747,0.467915131362246,0.28690065293201905,0.3087952223268315,1.0
0.07199100112485934,0.2916611180629539,0.23002378041431681,0.9912861599183083,0.9560242389099018,0.2982228563283147,0.7824528940091947,0.715838700172278,0.7951630035248491,0.9806317305634344,0.09459802483855756,0.13628982001039525,0.10894016025835179,0.9001127052687314,0.9160294321315887,0.9524991568600221,0.9732446674989227,0.33637817639416573,0.4636292369892019,0.28556958033743385,0.3063783792103701,1.0
0.0731158605174353,0.3187419807836088,0.21580250232708154,0.999836563376149,0.9868144469851345,0.3605241624881681,0.7768232051819828,0.6900173000977384,0.7729316632799876,0.9610318737920975,0.06391574350774865,0.11419016890561706,0.09764522462173092,0.90296759976526,0.9094284436401867,0.9480330196186839,0.965757884352635,0.33512432498694994,0.4581124559710102,0.2833530790476383,0.3022499825125943,1.0
0.07424071991001124,0.34374926390213467,0.21746186298306225,1.0,0.9933344121593057,0.41257819179271804,0.7680112220197496,0.6590072954051814,0.7533522248899255,0.941050448471529,0.0337507663841502,0.09185324205940548,0.09148986883653348,0.9063819903901937,0.9039913972767053,0.9451084863028314,0.9595510575339686,0.3318769188876953,0.4550720888220357,0.28152366031216736,0.30029363722322944,1.0
0.0753655793025872,0.3650929393138289,0.20069942725529266,0.9905227273370767,0.983904514054184,0.45057687351741804,0.7595786198295235,0.62792894763208,0.7253287651048652,0.919950050824852,0.00435798818222255,0.06602830627150091,0.08198375865343999,0.909241580924781,0.8973239403652364,0.9397418551207555,0.9493466189833809,0.3281510696309245,0.451423338816366,0.2786565110185213,0.2971925451925737,1.0
0.07649043869516309,0.37642999176791214,0.17003138162366205,0.9712034908812268,0.9610349974775243,0.4656804673115691,0.748073617322386,0.595558517644247,0.7054504761902762,0.8992153855795684,0.9770070469674577,0.04063091483969217,0.07410879668186177,0.9131705726324719,0.8917332931478793,0.934888920523726,0.9441539814777538,0.32532012240773817,0.4461019617735389,0.27508736444556686,0.2936368560357692,1.0
0.07761529808773904,0.38168163696023616,0.1362908621776402,0.948039837444921,0.9111617414706172,0.462178855549662,0.7325369185670885,0.5665740336019593,0.6832992295956566,0.8828379013274859,0.9498252378648651,0.020623810849041135,0.0674241568258847,0.9168696754247923,0.8853996387132509,0.9274548926511967,0.9383825569881068,0.3211582226810804,0.4431560175684448,0.2720300703214326,0.2922692391718278,1.0
0.07874015748031499,0.3832208919329043,0.09006421556136113,0.9236241640367451,0.8504642637300162,0.45548637066029163,0.7098523672489433,0.54282479631818,0.6707579839410128,0.8634974805132557,0.9221420823127122,0.0027850571050375694,0.06237189599110937,0.9193719610860666,0.880865755745543,0.9199498457211268,0.9370638349114515,0.3174309162520653,0.4388766902079758,0.26798543406088327,0.2893666315741689,1.0
0.07986501687289088,0.38279140305547,0.05910774532654717,0.8834817562702058,0.7633340178091057,0.4470654110213912,0.6888809320369365,0.5188989642031296,0.6642843403972172,0.8462324507871959,0.898211754038102,0.9931033665214445,0.06434509267194632,0.9175000749564608,0.8746231332841738,0.9111393163154234,0.9308576763736375,0.31508223126499146,0.4354346764742127,0.264602336364427,0.28772304392817977,1.0
0.08098987626546678,0.37858810509825236,0.04154383582137844,0.8456694822777637,0.6667037300054162,0.43389573814232185,0.6703701583848423,0.5002302830826137,0.650377140860134,0.8341085734278062,0.8764116422056171,0.9826355933576266,0.06752943308308806,0.9193707502499568,0.868131692199354,0.901162732493389,0.9239810825219361,0.3111415417973997,0.4314054950521805,0.260619536721893,0.2872984274783178,1.0
0.08211473565804273,0.3743629855583276,0.0,0.8068103093267291,0.5556917688763576,0.4261510287521846,0.6602205987039806,0.483592942308184,0.6393377515401125,0.8212764641281317,0.8583045938740019,0.973854131020195,0.07438382697924278,0.9212085107399136,0.863030351517988,0.8909017831544881,0.9197463840861839,0.30890679978011115,0.4284321702433155,0.25723894023692406,0.2860395939480762,1.0
0.10911136107986497,0.2235387175670751,0.11435233331926509,0.0,0.34065499582095926,0.26016306826962055,0.7957727476257327,0.237956819109162,0.6945760235621217,0.8072164214880337,0.7400797832708739,0.9412656465617151,0.03011135399933218,0.7907763270539784,0.6476297635235368,0.795713871231932,0.8787683516712425,0.2283490530063677,0.4065228822450608,0.24371185745621055,0.23306499822554255,1.0
0.11023622047244092,0.23301920200082293,0.15999660287992468,0.062142102043155845,0.3053193611019869,0.33707326945838667,0.7974212333764085,0.242206933835092,0.6775600707622602,0.7759861056083783,0.71015016539193,0.9441785395296036,0.0312033496738906,0.7792577481147083,0.6534148247839806,0.8012980206154987,0.8782939584497471,0.2291702487136773,0.412510223596614,0.2389985681404272,0.2288420651301903,1.0
0.11136107986501687,0.24022850834279674,0.20075692457133343,0.08049625562742779,0.24299791468855192,0.38593942670281267,0.8032515780300999,0.24116700645073846,0.6629150093106083,0.7533604661565765,0.6826554116681192,0.9384612936930767,0.032846936801030235,0.7739771829087165,0.6595656168910907,0.8044481535875703,0.8772410124870049,0.22534449473796808,0.41307625602284176,0.23385765984634305,0.22641316688157204,1.0
0.11248593925759282,0.2469044980009678,0.23801374939215547,0.10391103062187668,0.15927167592486713,0.4328502878097862,0.8145047223427745,0.23948577709434782,0.6471631459824113,0.7221845541152416,0.6506615176038189,0.9350236514818657,0.03475734771428962,0.7685656912642058,0.6572903687843117,0.8036350023453978,0.8731663932484797,0.22257106321897652,0.41097263021515384,0.22742221260965673,0.22218323228536901,1.0
0.11361079865016871,0.2554104482649915,0.26452488631372284,0.13652150300092103,0.11338194556319658,0.4670281091121258,0.8296606543004389,0.23388499062901952,0.6363210672229758,0.6900966938050253,0.6242733766495784,0.9297555862508476,0.03423909667498087,0.7696786930954002,0.6594876610466271,0.800788499637805,0.8687595553624532,0.21675360159125834,0.4094686023961845,0.22036498508895347,0.2179309786811664,1.0
0.11473565804274466,0.26333649947499493,0.30463674573371957,0.13554055773117035,0.07279327805306446,0.5193596223755448,0.8435513818678427,0.2236916127739515,0.6181351041389918,0.6506948543306749,0.5904694948160061,0.9261765852769279,0.031788835431936946,0.7660046239614835,0.6648722978916669,0.7934910237234183,0.8636052558073217,0.21005514726853564,0.40525681903359434,0.21498310069974852,0.2134172398168132,1.0
0.11586051743532061,0.2612562686069685,0.32932778477639113,0.1630722319010971,0.07064428082372398,0.5694381688135657,0.8558812647990716,0.20900707346665326,0.6019561115287075,0.6132806592838976,0.549430241801576,0.9169428526361931,0.02794312631068485,0.7615293334978828,0.6721430131150448,0.7859428787969605,0.8599229720251014,0.2056245795653756,0.39901904953786693,0.20941040047832282,0.2068996326823455,1.0
0.1169853768278965,0.24999618558687264,0.3531721572919584,0.19717258352678213,0.09304427105930824,0.6098274414774791,0.8711523390577941,0.19567741035952346,0.585181059141237,0.553221941141917,0.5008200199244449,0.9045915045049333,0.024249207587285937,0.7588321428159781,0.6756189885867954,0.7743546320141469,0.852574079747846,0.19817479661225618,0.3917174461779421,0.2043599242559404,0.20459343068346758,1.0
0.1181102362204724,0.23325921090601753,0.3802619925226385,0.1850137131143561,0.0837990988365429,0.6445521176477922,0.8881802348456503,0.18313917597155122,0.5667828626932174,0.49181592013468367,0.4465473441572381,0.8896245789934734,0.01698563460140362,0.7525247034131848,0.6799654543925593,0.7593257379818665,0.8467955164432119,0.19002859605485883,0.3832230292178088,0.19956784650709752,0.20430877652110846,1.0
0.11923509561304835,0.2136973477409171,0.39355204879534056,0.2032114388507904,0.1495251363450607,0.6672349182700381,0.8996169613985332,0.17451128135585053,0.547605589299581,0.4317441684271728,0.3911762836227689,0.8750241893419005,0.010773971917256653,0.7445994438237982,0.6840197614372789,0.7419058331213574,0.8420094980034241,0.18614692167178604,0.37388185754517145,0.1958106059354905,0.19947999103228553,1.0
0.1203599550056243,0.18336793581783561,0.39576136484032043,0.18761774477309157,0.1674094348399251,0.6832451570959266,0.911009611646694,0.1640856324246907,0.5299001782507959,0.37599478880770615,0.3415407151059733,0.8603863335146555,0.0014742600571245879,0.7356891927642302,0.6848763531735116,0.7206968688338449,0.8367833988786793,0.1779932284275545,0.3645636747860644,0.19321559694766727,0.19647744922923904,1.0
0.12148481439820019,0.15102493204623446,0.40533190303855426,0.20480968802516974,0.21621190347124086,0.6945006135724492,0.9190570144662524,0.16586749366668113,0.5143912874952646,0.3284957483752772,0.29245558071969996,0.8453891779828486,0.9937675630185727,0.7257407621746519,0.6899335138608453,0.7002311024184051,0.8339889067752135,0.17209387276837218,0.35555303989534337,0.19051910037521025,0.19243528325945536,1.0
0.12260967379077614,0.1281133912859882,0.4106393133989916,0.2242196386866424,0.2381654746209554,0.6931671740232104,0.9249478266345368,0.16646977093965332,0.49604230662483373,0.2802947041524157,0.2529752998380306,0.8300423732771506,0.9828314735366155,0.7162546383953008,0.7003386540599759,0.684642272310714,0.8318393823886099,0.16650595072174834,0.3418712055765176,0.1878354505854143,0.1882042325986677,1.0
0.12373453318335209,0.09200715745608923,0.4068061623226087,0.2592812599554215,0.3028423913790923,0.6936462543304707,0.9227497838200145,0.17247374973787766,0.481063076876542,0.2420156213522906,0.22323600458682918,0.8156880711817744,0.9728137331351118,0.7093637776075298,0.687430483405508,0.660727673332986,0.8227850113781106,0.16300364111632537,0.3356368810732797,0.18769615748876572,0.18569157451729168,1.0
0.12485939257592804,0.06663636769871872,0.40645005437192827,0.2984984232227035,0.35663367544933955,0.6761584443536561,0.9223916783556606,0.1842808648320824,0.46729162345462516,0.20696231411278332,0.19549804089314793,0.8026523735311633,0.9637544617007701,0.6934969422421313,0.6781226910460274,0.6423783086150008,0.8220640929769225,0.15792425719034497,0.32682100160999905,0.18683096778624997,0.18114693981691365,1.0
0.12598425196850394,0.033413788817416634,0.40674446885057725,0.3158590759277009,0.3981271026490365,0.6520064188233492,0.9154980966342116,0.20136108517096807,0.4514395293446493,0.169804989449941,0.16869642751918107,0.794443980845714,0.9548448012794231,0.6809910627467978,0.6690686542443278,0.6226316748112073,0.8163288703048697,0.15362126554637623,0.3223458480114545,0.186228981253989,0.17783202132646614,1.0
0.12710911136107983,0.02429508429111782,0.39559665848293335,0.32693991567599934,0.44222949483445095,0.6339667692477231,0.9092388571485566,0.23173183913428713,0.4336133153781072,0.145133364632565,0.14936114624634228,0.7925911121375715,0.9474525232315989,0.6686021992368445,0.6630748151226001,0.608923359422434,0.8109519196142663,0.15259656553838385,0.31671448574632366,0.18535644775953608,0.17510055364797517,1.0
0.12823397075365578,0.025003373582363597,0.3790904681806462,0.34089866974520233,0.48913992138878637,0.6380675929038968,0.901535160923336,0.2504310158976555,0.4179329837388589,0.12712763523484838,0.13344977301352745,0.7884906085985277,0.9425687923074216,0.6450453036381161,0.6524304123599467,0.5966088734538768,0.7987680695763888,0.15065824617020807,0.3118364900816605,0.18503465155550058,0.17100546394486915,1.0
0.12935883014623173,0.026944111823977268,0.35811596998737794,0.38591394030549053,0.5587209610386643,0.6382455910847251,0.8949437343991263,0.2787555841148447,0.4062876917629234,0.10628687393925335,0.11602533924275754,0.7810059265260887,0.9380225275776068,0.6288952916042965,0.6376584413207029,0.5860835641064177,0.7872475766129565,0.1525837261535571,0.3068999210380631,0.18532244375325263,0.16988263638509127,1.0
0.13048368953880762,0.04892177976516365,0.3318703245039756,0.40413705302185243,0.6169800623810411,0.6315762805968665,0.8873380563139119,0.30583854150834705,0.39266448511976526,0.08294007378656881,0.09750884834979151,0.7752376997279388,0.9336945985216887,0.6148700040560879,0.6179673491855295,0.58430800835626,0.7757831976627074,0.15168659136673257,0.3002554090312791,0.1864263392389089,0.1652373641020226,1.0
0.13160854893138357,0.0850672497164433,0.28146884495553937,0.41435162128674174,0.6629921225686428,0.6241143820753459,0.8787265052230667,0.32559287107441204,0.3817523712845392,0.06547974757225,0.0803802239842813,0.7731443649792723,0.9311125933247633,0.5964837475716065,0.5925040486807615,0.5881742583908807,0.764033556251638,0.1545391435874266,0.29825487482488267,0.1873929862647481,0.16226762760245272,1.0
0.13273340832395952,0.11946882557274974,0.2440943656087493,0.42764476001856067,0.70703473001524,0.6284778030812521,0.873005994051005,0.339757070117214,0.3848429270653425,0.05043839908044284,0.062159473111385255,0.7684663688723306,0.9289766038317585,0.5847747909225397,0.5706978117764145,0.5957600987853926,0.7538180743632152,0.15798591982334342,0.29464744646078567,0.18609707334446618,0.1551303386935431,1.0
0.13385826771653542,0.16113198576887044,0.22033202170594568,0.46214844969563096,0.7555887663624694,0.6330856640357587,0.8691144171491211,0.34318746066778516,0.39269181794513297,0.030322605971257632,0.04480180015388158,0.768047251826598,0.9287339745576246,0.5763978849973295,0.5516388093205512,0.6055703018921589,0.7403904030002242,0.15258165241820465,0.2933642675248035,0.18628835936893234,0.15147365149120917,1.0
0.13498312710911137,0.1945533762009477,0.2193081421810188,0.4610095859470398,0.7852478099497371,0.6515963180092961,0.8649965931984652,0.34582669438618263,0.3950691931718304,0.0054426554289372375,0.025534949676001784,0.7639289122744148,0.9275680309352853,0.572447533255404,0.5338343863130693,0.6166573941217479,0.726457457366836,0.15356575487650792,0.2917335422988462,0.18717820176189054,0.14662214356206982,1.0
0.13610798650168726,0.23176659208025918,0.2133555117158321,0.42223715940653594,0.7893546673945315,0.6793373990609208,0.8673644979281573,0.34469587347833985,0.3989771271332593,0.9974507765203737,0.007339809461776592,0.7541187920349537,0.9294173236026388,0.5688754135372185,0.5201416145978413,0.6280060838048964,0.714476105136575,0.14972524709956325,0.289599569078133,0.18627256496336075,0.14023311859438603,1.0
0.1372328458942632,0.2670422445998496,0.20810408486200904,0.4255783203910377,0.7992131505797304,0.6777998991098275,0.8675897438261522,0.33762390937908243,0.40704225915982384,0.9908387954530271,0.9995463579582297,0.7409838270868935,0.9273751473034884,0.560684030302498,0.5084662985736821,0.6396581638097084,0.7021947722779185,0.14140627670820116,0.28575616214509836,0.1871581981793511,0.1374843886642546,1.0
0.1383577052868391,0.2977815938993519,0.23073351554426402,0.41650928624355754,0.8361940925417723,0.6743611197979433,0.8690510542283199,0.32518042295703653,0.41117292534470984,0.981915415293976,0.9878545146223916,0.7324035026817299,0.9262575172755809,0.5475624922686041,0.49143343272856743,0.6475198136514384,0.6924790771134657,0.137851228799292,0.2805775632159938,0.18738502125949824,0.13123333226038636,1.0
0.13948256467941506,0.32590719640878696,0.24124067018706308,0.4128112420846879,0.8745875473748526,0.6684377678566,0.8734562969578508,0.3098805331091793,0.41054346188443186,0.9766636314980309,0.9741778744983791,0.7237121407389829,0.9268755448957936,0.5324077392946752,0.47419909964083584,0.6523761007214512,0.6778829407933954,0.13279158982516104,0.2767950896660587,0.1897200884469583,0.12921914380337884,1.0
0.140607424071991,0.34853401426636044,0.25606530511197456,0.43326549100447265,0.9033345793829866,0.6639088862999409,0.8795682167043661,0.29343018099735024,0.4170474294510766,0.9694221646705112,0.9554823893220294,0.7157312121572317,0.9250145269708974,0.5197315110872881,0.4590106798237207,0.6542339130350545,0.663464000941689,0.13210437857984847,0.27072223741944457,0.19068844694973197,0.12277049877496238,1.0
0.14173228346456695,0.362468457755571,0.2961716451648406,0.4311098488795948,0.9025973001943419,0.6578349074462249,0.8863481254754,0.27106959804497616,0.41828791854220004,0.9565483181621649,0.9393895777194927,0.7050395764328525,0.9242307444678057,0.509588227252582,0.4458904183618464,0.6585758150146541,0.6484349156021746,0.12957107081474495,0.2678682858234315,0.19238801149090468,0.11995511573223205,1.0
0.14285714285714285,0.3665655664337353,0.31443779010665174,0.41778321310475075,0.9157461991580949,0.6310696457545109,0.8937352833421985,0.2538581191461422,0.40858997072109116,0.9497599086203472,0.9257755018587226,0.6977445917671613,0.9215577709675294,0.5021788562301097,0.42545969972418685,0.6601045871196414,0.6322610135564076,0.1280580336176872,0.26411798168225253,0.19422130447344527,0.11743234642183065,1.0
0.1439820022497188,0.3684662113593661,0.33670380823374324,0.407141122383599,0.9366956137097322,0.6217820735808353,0.898654703777462,0.23561098933263175,0.41026349736730944,0.9446215187878909,0.909139125287303,0.696779185173555,0.9177456970192643,0.5008336275658143,0.4140394030288592,0.6579561505464864,0.6240058900665041,0.12698281186262472,0.26432792676029515,0.19329668641079178,0.11362852529604861,1.0
0.1451068616422947,0.36470147878615566,0.37183781270731764,0.3900365707405451,0.9271054035735644,0.6211248678411594,0.9094812034527819,0.21690487292150235,0.4081804149291751,0.9468769373481771,0.8918801024647599,0.6906078522155804,0.9154242755536504,0.5028993022940921,0.40502927599471117,0.6520492595535994,0.609142525509315,0.12310306183081543,0.2652570330209407,0.19337482539616513,0.11259315029987049,1.0
0.14623172103487064,0.3548849305768812,0.4065276293713298,0.4000544717317662,0.9127313711172356,0.610950604171723,0.916935626544501,0.2016636978275302,0.4011155834244782,0.9476667061919126,0.8739245830276479,0.682990640371027,0.9095284324559665,0.5106234173056974,0.406016122407861,0.6446535907064621,0.6030274584223232,0.11985103626493754,0.26913706766486833,0.19388505620988422,0.11338931150703424,1.0
0.14735658042744654,0.3431807120241043,0.4357798859843147,0.4143178654617439,0.882063595970926,0.5889633990838066,0.9245150678126816,0.18810624701321188,0.3926151370453602,0.947229848721667,0.8594601905532708,0.6766197893345283,0.9062792234756,0.510574923659598,0.4035014789143737,0.6342238784919914,0.5939534830335971,0.11697921012493262,0.27176016185914675,0.19277925169232452,0.1129565088006691,1.0
0.1484814398200225,0.32767164730567644,0.46436349187598336,0.4147020436939801,0.8476233132621083,0.5568654702709479,0.9310929671155617,0.17770071170876495,0.383581524132414,0.9473066727383992,0.8467521091589427,0.6739182633985633,0.8973863031236733,0.5118798707800618,0.40206864209965765,0.6229304998945281,0.5855866547288489,0.11307195337040332,0.27724225862545937,0.19148946611640372,0.1111270769599082,1.0
